
T3F88 000:066 SEGGER J-Link V6.10i Log File (0001ms, 0038ms total)
T3F88 000:066 DLL Compiled: Oct 25 2016 19:31:51 (0001ms, 0038ms total)
T3F88 000:066 Logging started @ 2020-03-25 19:07 (0001ms, 0038ms total)
T3F88 000:067 JLINK_SetWarnOutHandler(...) (0000ms, 0038ms total)
T3F88 000:067 JLINK_OpenEx(...)
Firmware: J-Link V9 compiled Sep  1 2016 18:29:50
Hardware: V9.60
S/N: 69664717
Feature(s): RDI, GDB, FlashDL, FlashBP, JFlashWEBSRV Webserver running on local port 19080 (0023ms, 0061ms total)
T3F88 000:067   returns O.K. (0023ms, 0061ms total)
T3F88 000:090 JLINK_SetErrorOutHandler(...) (0000ms, 0061ms total)
T3F88 000:090 JLINK_ExecCommand("ProjectFile = "D:\F407ZE\F407ZE\MDK-ARM\JLinkSettings.ini"", ...).   returns 0x00 (0073ms, 0134ms total)
T3F88 000:163 JLINK_ExecCommand("Device = STM32F407ZETx", ...). Device "STM32F407ZE" selected.  returns 0x00 (0001ms, 0135ms total)
T3F88 000:164 JLINK_ExecCommand("DisableConnectionTimeout", ...).   returns 0x01 (0000ms, 0135ms total)
T3F88 000:164 JLINK_GetHardwareVersion()  returns 0x17700 (0000ms, 0135ms total)
T3F88 000:164 JLINK_GetDLLVersion()  returns 61009 (0000ms, 0135ms total)
T3F88 000:164 JLINK_GetFirmwareString(...) (0000ms, 0135ms total)
T3F88 000:164 JLINK_GetDLLVersion()  returns 61009 (0001ms, 0136ms total)
T3F88 000:165 JLINK_GetCompileDateTime() (0000ms, 0136ms total)
T3F88 000:165 JLINK_GetFirmwareString(...) (0000ms, 0136ms total)
T3F88 000:165 JLINK_GetHardwareVersion()  returns 0x17700 (0000ms, 0136ms total)
T3F88 000:165 JLINK_TIF_Select(JLINKARM_TIF_SWD)  returns 0x00 (0003ms, 0139ms total)
T3F88 000:168 JLINK_SetSpeed(2000) (0000ms, 0139ms total)
T3F88 000:168 JLINK_GetId() >0x108 TIF>Found SWD-DP with ID 0x2BA01477 >0x0D TIF> >0x28 TIF> >0x0D TIF> >0x28 TIF> >0x0D TIF> >0x28 TIF> >0x0D TIF> >0x28 TIF> >0x0D TIF> >0x21 TIF> >0x0D TIF> >0x28 TIF> >0x0D TIF> >0x28 TIF> >0x0D TIF> >0x28 TIF> >0x0D TIF> >0x21 TIF> >0x0D TIF> >0x21 TIF> >0x0D TIF> >0x28 TIF> >0x0D TIF> >0x21 TIF> >0x0D TIF> >0x21 TIF> >0x0D TIF> >0x28 TIF> >0x0D TIF> >0x21 TIF> >0x0D TIF> >0x21 TIF> >0x0D TIF> >0x28 TIF> >0x0D TIF> >0x21 TIF> >0x0D TIF> >0x21 TIF> >0x0D TIF>
 >0x28 TIF> >0x0D TIF> >0x21 TIF> >0x0D TIF> >0x21 TIF> >0x0D TIF> >0x28 TIF> >0x0D TIF> >0x21 TIF> >0x0D TIF> >0x21 TIF> >0x108 TIF>Found SWD-DP with ID 0x2BA01477 >0x0D TIF> >0x28 TIF> >0x0D TIF> >0x28 TIF> >0x0D TIF> >0x28 TIF> >0x0D TIF> >0x28 TIF> >0x0D TIF> >0x21 TIF> >0x0D TIF> >0x28 TIF> >0x0D TIF> >0x28 TIF> >0x0D TIF> >0x21 TIF> >0x0D TIF> >0x21 TIF> >0x0D TIF> >0x21 TIF>AP-IDR: 0x24770011, Type: AHB-AP >0x0D TIF> >0x28 TIF> >0x0D TIF> >0x28 TIF> >0x0D TIF> >0x28 TIF> >0x0D TIF> >0x21 TIF>
 >0x0D TIF> >0x21 TIF> >0x0D TIF> >0x28 TIF> >0x0D TIF> >0x21 TIF> >0x0D TIF> >0x21 TIF>Found Cortex-M4 r0p1, Little endian. -- CPU_ReadMem(4 bytes @ 0xE000EDF0) -- CPU_ReadMem(4 bytes @ 0xE0002000)FPUnit: 6 code (BP) slots and 2 literal slots -- CPU_ReadMem(4 bytes @ 0xE000EDFC) -- CPU_WriteMem(4 bytes @ 0xE000EDFC) -- CPU_ReadMem(4 bytes @ 0xE0001000) -- CPU_WriteMem(4 bytes @ 0xE0001000) -- CPU_ReadMem(4 bytes @ 0xE000ED88) -- CPU_WriteMem(4 bytes @ 0xE000ED88) -- CPU_ReadMem(4 bytes @ 0xE000ED88)
 -- CPU_WriteMem(4 bytes @ 0xE000ED88)CoreSight components:ROMTbl 0 @ E00FF000 -- CPU_ReadMem(16 bytes @ 0xE00FF000) -- CPU_ReadMem(16 bytes @ 0xE000EFF0) -- CPU_ReadMem(16 bytes @ 0xE000EFE0)ROMTbl 0 [0]: FFF0F000, CID: B105E00D, PID: 000BB00C SCS -- CPU_ReadMem(16 bytes @ 0xE0001FF0) -- CPU_ReadMem(16 bytes @ 0xE0001FE0)ROMTbl 0 [1]: FFF02000, CID: B105E00D, PID: 003BB002 DWT -- CPU_ReadMem(16 bytes @ 0xE0002FF0) -- CPU_ReadMem(16 bytes @ 0xE0002FE0)
ROMTbl 0 [2]: FFF03000, CID: B105E00D, PID: 002BB003 FPB -- CPU_ReadMem(16 bytes @ 0xE0000FF0) -- CPU_ReadMem(16 bytes @ 0xE0000FE0)ROMTbl 0 [3]: FFF01000, CID: B105E00D, PID: 003BB001 ITM -- CPU_ReadMem(16 bytes @ 0xE00FF010) -- CPU_ReadMem(16 bytes @ 0xE0040FF0) -- CPU_ReadMem(16 bytes @ 0xE0040FE0)ROMTbl 0 [4]: FFF41000, CID: B105900D, PID: 000BB9A1 TPIU -- CPU_ReadMem(16 bytes @ 0xE0041FF0) -- CPU_ReadMem(16 bytes @ 0xE0041FE0)ROMTbl 0 [5]: FFF42000, CID: B105900D, PID: 000BB925 ETM >0x0D TIF>
 >0x21 TIF>  returns 0x2BA01477 (0096ms, 0235ms total)
T3F88 000:264 JLINK_GetDLLVersion()  returns 61009 (0001ms, 0236ms total)
T3F88 000:265 JLINK_CORE_GetFound()  returns 0xE0000FF (0000ms, 0236ms total)
T3F88 000:265 JLINK_GetDebugInfo(0x100) -- Value=0xE00FF000  returns 0x00 (0000ms, 0236ms total)
T3F88 000:265 JLINK_GetDebugInfo(0x100) -- Value=0xE00FF000  returns 0x00 (0000ms, 0236ms total)
T3F88 000:265 JLINK_GetDebugInfo(0x101) -- Value=0xE0041000  returns 0x00 (0000ms, 0236ms total)
T3F88 000:265 JLINK_GetDebugInfo(0x102) -- Value=0x00000000  returns 0x00 (0000ms, 0236ms total)
T3F88 000:265 JLINK_GetDebugInfo(0x103) -- Value=0xE0040000  returns 0x00 (0000ms, 0236ms total)
T3F88 000:265 JLINK_GetDebugInfo(0x104) -- Value=0xE0000000  returns 0x00 (0000ms, 0236ms total)
T3F88 000:265 JLINK_GetDebugInfo(0x105) -- Value=0xE0001000  returns 0x00 (0000ms, 0236ms total)
T3F88 000:265 JLINK_GetDebugInfo(0x106) -- Value=0xE0002000  returns 0x00 (0001ms, 0237ms total)
T3F88 000:266 JLINK_GetDebugInfo(0x107) -- Value=0xE000E000  returns 0x00 (0000ms, 0237ms total)
T3F88 000:266 JLINK_GetDebugInfo(0x10C) -- Value=0xE000EDF0  returns 0x00 (0000ms, 0237ms total)
T3F88 000:266 JLINK_ReadMemU32(0xE000EF40, 0x0001 Items, ...) -- CPU is running -- CPU_ReadMem(4 bytes @ 0xE000EF40) - Data: 21 00 11 10  returns 0x01 (0001ms, 0238ms total)
T3F88 000:267 JLINK_ReadMemU32(0xE000EF44, 0x0001 Items, ...) -- CPU is running -- CPU_ReadMem(4 bytes @ 0xE000EF44) - Data: 11 00 00 11  returns 0x01 (0001ms, 0239ms total)
T3F88 000:268 JLINK_ReadMemU32(0xE000ED00, 0x0001 Items, ...) -- CPU is running -- CPU_ReadMem(4 bytes @ 0xE000ED00) - Data: 41 C2 0F 41  returns 0x01 (0001ms, 0240ms total)
T3F88 000:269 JLINK_SetResetType(JLINKARM_RESET_TYPE_NORMAL)  returns JLINKARM_RESET_TYPE_NORMAL (0000ms, 0240ms total)
T3F88 000:269 JLINK_Reset() -- CPU is running -- CPU_WriteMem(4 bytes @ 0xE000EDF0) -- CPU is running -- CPU_WriteMem(4 bytes @ 0xE000EDFC) >0x35 TIF> -- CPU is running -- CPU_WriteMem(4 bytes @ 0xE000ED0C) -- CPU is running -- CPU_ReadMem(4 bytes @ 0xE000EDF0) -- CPU is running -- CPU_ReadMem(4 bytes @ 0xE000EDF0) -- CPU is running -- CPU_WriteMem(4 bytes @ 0xE000EDF0) -- CPU is running -- CPU_WriteMem(4 bytes @ 0xE000EDFC) -- CPU is running -- CPU_ReadMem(4 bytes @ 0xE000EDF0)
 -- CPU_WriteMem(4 bytes @ 0xE0002000) -- CPU_ReadMem(4 bytes @ 0xE000EDFC) -- CPU_ReadMem(4 bytes @ 0xE0001000) (0025ms, 0265ms total)
T3F88 000:294 JLINK_ReadReg(R15 (PC))  returns 0x0800025C (0000ms, 0265ms total)
T3F88 000:294 JLINK_ReadReg(XPSR)  returns 0x01000000 (0000ms, 0265ms total)
T3F88 000:294 JLINK_Halt()  returns 0x00 (0000ms, 0265ms total)
T3F88 000:294 JLINK_IsHalted()  returns TRUE (0000ms, 0265ms total)
T3F88 000:294 JLINK_ReadMemU32(0xE000EDF0, 0x0001 Items, ...) -- CPU_ReadMem(4 bytes @ 0xE000EDF0) - Data: 03 00 03 00  returns 0x01 (0001ms, 0266ms total)
T3F88 000:295 JLINK_WriteU32(0xE000EDF0, 0xA05F0003) -- CPU_WriteMem(4 bytes @ 0xE000EDF0)  returns 0x00 (0001ms, 0267ms total)
T3F88 000:296 JLINK_WriteU32(0xE000EDFC, 0x01000000) -- CPU_WriteMem(4 bytes @ 0xE000EDFC)  returns 0x00 (0001ms, 0268ms total)
T3F88 000:297 JLINK_GetHWStatus(...)  returns 0x00 (0001ms, 0269ms total)
T3F88 000:298 JLINK_GetNumBPUnits(Type = 0xFFFFFF00)  returns 0x06 (0000ms, 0269ms total)
T3F88 000:298 JLINK_GetNumBPUnits(Type = 0xF0)  returns 0x2000 (0000ms, 0269ms total)
T3F88 000:298 JLINK_GetNumWPUnits()  returns 0x04 (0000ms, 0269ms total)
T3F88 000:298 JLINK_GetSpeed()  returns 0x7D0 (0000ms, 0269ms total)
T3F88 000:298 JLINK_ReadMemU32(0xE000E004, 0x0001 Items, ...) -- CPU_ReadMem(4 bytes @ 0xE000E004) - Data: 02 00 00 00  returns 0x01 (0001ms, 0270ms total)
T3F88 000:300 JLINK_ReadMemU32(0xE000E004, 0x0001 Items, ...) -- CPU_ReadMem(4 bytes @ 0xE000E004) - Data: 02 00 00 00  returns 0x01 (0001ms, 0272ms total)
T3F88 000:301 JLINK_WriteMem(0xE0001000, 0x001C Bytes, ...) - Data: 01 00 00 00 00 00 00 00 00 00 00 00 00 00 00 00 ... -- CPU_WriteMem(28 bytes @ 0xE0001000)  returns 0x1C (0002ms, 0274ms total)
T3F88 000:303 JLINK_ReadMem (0xE0001000, 0x001C Bytes, ...) -- CPU_ReadMem(28 bytes @ 0xE0001000) - Data: 01 00 00 40 00 00 00 00 00 00 00 00 00 00 00 00 ...  returns 0x00 (0001ms, 0275ms total)
T3F88 000:304 JLINK_ReadReg(R15 (PC))  returns 0x0800025C (0000ms, 0275ms total)
T3F88 000:304 JLINK_ReadReg(XPSR)  returns 0x01000000 (0000ms, 0275ms total)
T3F88 000:433 JLINK_SetResetType(JLINKARM_RESET_TYPE_NORMAL)  returns JLINKARM_RESET_TYPE_NORMAL (0000ms, 0275ms total)
T3F88 000:433 JLINK_Reset() -- CPU_WriteMem(4 bytes @ 0xE000EDF0) -- CPU_WriteMem(4 bytes @ 0xE000EDFC) >0x35 TIF> -- CPU_WriteMem(4 bytes @ 0xE000ED0C) -- CPU_ReadMem(4 bytes @ 0xE000EDF0) -- CPU_ReadMem(4 bytes @ 0xE000EDF0) -- CPU_WriteMem(4 bytes @ 0xE000EDF0) -- CPU_WriteMem(4 bytes @ 0xE000EDFC) -- CPU is running -- CPU_ReadMem(4 bytes @ 0xE000EDF0) -- CPU_WriteMem(4 bytes @ 0xE0002000) -- CPU_ReadMem(4 bytes @ 0xE000EDFC) -- CPU_ReadMem(4 bytes @ 0xE0001000) (0027ms, 0302ms total)
T3F88 000:460 JLINK_ReadReg(R15 (PC))  returns 0x0800025C (0000ms, 0302ms total)
T3F88 000:460 JLINK_ReadReg(XPSR)  returns 0x01000000 (0000ms, 0302ms total)
T3F88 000:461 JLINK_ReadMem (0x08000188, 0x003C Bytes, ...) -- CPU_ReadMem(128 bytes @ 0x08000180) -- Updating C cache (128 bytes @ 0x08000180) -- Read from C cache (60 bytes @ 0x08000188) - Data: DF F8 0C D0 00 F0 12 F9 00 48 00 47 A1 6B 00 08 ...  returns 0x00 (0002ms, 0304ms total)
T3F88 000:463 JLINK_ReadMem (0x080001C4, 0x003C Bytes, ...) -- Read from C cache (60 bytes @ 0x080001C4) - Data: 08 88 4F F0 00 00 80 F3 14 88 62 B6 61 B6 BF F3 ...  returns 0x00 (0000ms, 0304ms total)
T3F88 000:463 JLINK_ReadMem (0x08000200, 0x003C Bytes, ...) -- CPU_ReadMem(64 bytes @ 0x08000200) -- Updating C cache (64 bytes @ 0x08000200) -- Read from C cache (60 bytes @ 0x08000200) - Data: 13 4B 1A 68 1E F0 10 0F 08 BF 20 ED 10 8A 20 E9 ...  returns 0x00 (0001ms, 0305ms total)
T3F88 000:464 JLINK_ReadMem (0x0800023C, 0x003C Bytes, ...) -- CPU_ReadMem(64 bytes @ 0x08000240) -- Updating C cache (64 bytes @ 0x08000240) -- Read from C cache (60 bytes @ 0x0800023C) - Data: 1E F0 10 0F 08 BF B0 EC 10 8A 80 F3 09 88 BF F3 ...  returns 0x00 (0002ms, 0307ms total)
T3F88 000:727 JLINK_ReadMem (0x40006400, 0x001C Bytes, ...) -- CPU_ReadMem(28 bytes @ 0x40006400) - Data: 02 00 01 00 0A 0C 00 00 00 00 00 1C 00 00 00 00 ...  returns 0x00 (0001ms, 0308ms total)
T3F88 000:728 JLINK_ReadMem (0x4000641C, 0x0004 Bytes, ...) -- CPU_ReadMem(4 bytes @ 0x4000641C) - Data: 00 00 23 01  returns 0x00 (0001ms, 0309ms total)
T3F88 000:729 JLINK_ReadMem (0x40006580, 0x004C Bytes, ...) -- CPU_ReadMem(76 bytes @ 0x40006580) - Data: 3A B8 7F E3 3B B8 7F E3 3B B8 7F E3 3B B8 7F E3 ...  returns 0x00 (0002ms, 0311ms total)
T3F88 000:731 JLINK_ReadMem (0x400065CC, 0x0004 Bytes, ...) -- CPU_ReadMem(4 bytes @ 0x400065CC) - Data: 3B B8 7F E3  returns 0x00 (0001ms, 0312ms total)
T3F88 000:732 JLINK_ReadMem (0x40006600, 0x0004 Bytes, ...) -- CPU_ReadMem(4 bytes @ 0x40006600) - Data: 01 0E 1C 2A  returns 0x00 (0001ms, 0313ms total)
T3F88 000:733 JLINK_ReadMem (0x40006604, 0x0004 Bytes, ...) -- CPU_ReadMem(4 bytes @ 0x40006604) - Data: 00 00 00 00  returns 0x00 (0001ms, 0314ms total)
T3F88 000:734 JLINK_ReadMem (0x4000660C, 0x0004 Bytes, ...) -- CPU_ReadMem(4 bytes @ 0x4000660C) - Data: 00 00 00 00  returns 0x00 (0001ms, 0315ms total)
T3F88 000:735 JLINK_ReadMem (0x40006614, 0x0004 Bytes, ...) -- CPU_ReadMem(4 bytes @ 0x40006614) - Data: 00 00 00 00  returns 0x00 (0001ms, 0316ms total)
T3F88 000:736 JLINK_ReadMem (0x4000661C, 0x0004 Bytes, ...) -- CPU_ReadMem(4 bytes @ 0x4000661C) - Data: 00 00 00 00  returns 0x00 (0001ms, 0317ms total)
T3F88 000:737 JLINK_ReadMem (0x40006640, 0x00DC Bytes, ...) -- CPU_ReadMem(220 bytes @ 0x40006640) - Data: 3B B8 7F E3 3B B8 7F E3 3B B8 7F E3 3B B8 7F E3 ...  returns 0x00 (0002ms, 0319ms total)
T3F88 000:739 JLINK_ReadMem (0x4000671C, 0x0004 Bytes, ...) -- CPU_ReadMem(4 bytes @ 0x4000671C) - Data: 3B B8 7F E3  returns 0x00 (0001ms, 0320ms total)
T3F88 000:846 JLINK_ReadMem (0x40026000, 0x00CC Bytes, ...) -- CPU_ReadMem(204 bytes @ 0x40026000) - Data: 00 00 00 00 00 00 00 00 00 00 00 00 00 00 00 00 ...  returns 0x00 (0003ms, 0323ms total)
T3F88 000:849 JLINK_ReadMem (0x400260CC, 0x0004 Bytes, ...) -- CPU_ReadMem(4 bytes @ 0x400260CC) - Data: 00 00 00 00  returns 0x00 (0001ms, 0324ms total)
T3F88 000:938 JLINK_ReadMem (0x40001800, 0x0010 Bytes, ...) -- CPU_ReadMem(16 bytes @ 0x40001800) - Data: 00 00 00 00 00 00 00 00 00 00 00 00 00 00 00 00  returns 0x00 (0002ms, 0326ms total)
T3F88 000:940 JLINK_ReadMem (0x40001810, 0x0004 Bytes, ...) -- CPU_ReadMem(4 bytes @ 0x40001810) - Data: 00 00 00 00  returns 0x00 (0001ms, 0327ms total)
T3F88 000:941 JLINK_ReadMem (0x40001818, 0x0004 Bytes, ...) -- CPU_ReadMem(4 bytes @ 0x40001818) - Data: 00 00 00 00  returns 0x00 (0001ms, 0328ms total)
T3F88 000:942 JLINK_ReadMem (0x40001820, 0x000C Bytes, ...) -- CPU_ReadMem(12 bytes @ 0x40001820) - Data: 00 00 00 00 00 00 00 00 00 00 00 00  returns 0x00 (0001ms, 0329ms total)
T3F88 000:943 JLINK_ReadMem (0x4000182C, 0x0004 Bytes, ...) -- CPU_ReadMem(4 bytes @ 0x4000182C) - Data: 00 00 00 00  returns 0x00 (0001ms, 0330ms total)
T3F88 000:944 JLINK_ReadMem (0x40001834, 0x0004 Bytes, ...) -- CPU_ReadMem(4 bytes @ 0x40001834) - Data: 00 00 00 00  returns 0x00 (0001ms, 0331ms total)
T3F88 000:945 JLINK_ReadMem (0x40001838, 0x0004 Bytes, ...) -- CPU_ReadMem(4 bytes @ 0x40001838) - Data: 00 00 00 00  returns 0x00 (0001ms, 0332ms total)
T3F88 001:036 JLINK_ReadMem (0x40004400, 0x0018 Bytes, ...) -- CPU_ReadMem(24 bytes @ 0x40004400) - Data: 00 00 00 00 00 00 00 00 00 00 00 00 00 00 00 00 ...  returns 0x00 (0001ms, 0333ms total)
T3F88 001:037 JLINK_ReadMem (0x40004418, 0x0004 Bytes, ...) -- CPU_ReadMem(4 bytes @ 0x40004418) - Data: 00 00 00 00  returns 0x00 (0001ms, 0334ms total)
T3F88 004:536 JLINK_ReadMem (0x20000F40, 0x0010 Bytes, ...) -- CPU_ReadMem(64 bytes @ 0x20000F40) -- Updating C cache (64 bytes @ 0x20000F40) -- Read from C cache (16 bytes @ 0x20000F40) - Data: 01 03 04 00 07 00 00 4B F2 00 00 00 00 00 00 00  returns 0x00 (0002ms, 0336ms total)
T3F88 004:539 JLINK_ReadMem (0x2000000C, 0x0004 Bytes, ...) -- CPU_ReadMem(64 bytes @ 0x20000000) -- Updating C cache (64 bytes @ 0x20000000) -- Read from C cache (4 bytes @ 0x2000000C) - Data: 40 00 00 D3  returns 0x00 (0002ms, 0338ms total)
T3F88 004:543 JLINK_ReadMem (0x20000010, 0x0004 Bytes, ...) -- Read from C cache (4 bytes @ 0x20000010) - Data: 58 40 64 1E  returns 0x00 (0000ms, 0338ms total)
T182C 004:620 JLINK_SetBPEx(Addr = 0x08006BA0, Type = 0xFFFFFFF2)  returns 0x00000001 (0000ms, 0338ms total)
T182C 004:620 JLINK_Go() -- CPU_WriteMem(4 bytes @ 0xE0002000) -- CPU_ReadMem(4 bytes @ 0xE0001000) -- CPU_WriteMem(4 bytes @ 0xE0002008) -- CPU_WriteMem(4 bytes @ 0xE000200C) -- CPU_WriteMem(4 bytes @ 0xE0002010) -- CPU_WriteMem(4 bytes @ 0xE0002014) -- CPU_WriteMem(4 bytes @ 0xE0002018) -- CPU_WriteMem(4 bytes @ 0xE000201C) -- CPU_WriteMem(4 bytes @ 0xE0001004) (0008ms, 0346ms total)
T182C 004:729 JLINK_IsHalted()  returns TRUE (0004ms, 0350ms total)
T182C 004:733 JLINK_Halt()  returns 0x00 (0001ms, 0347ms total)
T182C 004:734 JLINK_IsHalted()  returns TRUE (0000ms, 0347ms total)
T182C 004:734 JLINK_IsHalted()  returns TRUE (0000ms, 0347ms total)
T182C 004:734 JLINK_IsHalted()  returns TRUE (0000ms, 0347ms total)
T182C 004:734 JLINK_ReadReg(R15 (PC))  returns 0x08006BA0 (0000ms, 0347ms total)
T182C 004:734 JLINK_ReadReg(XPSR)  returns 0x61000000 (0000ms, 0347ms total)
T182C 004:734 JLINK_ClrBPEx(BPHandle = 0x00000001)  returns 0x00 (0000ms, 0347ms total)
T182C 004:734 JLINK_ReadMemU32(0xE000ED30, 0x0001 Items, ...) -- CPU_ReadMem(4 bytes @ 0xE000ED30) - Data: 02 00 00 00  returns 0x01 (0001ms, 0348ms total)
T182C 004:735 JLINK_ReadMemU32(0xE0001028, 0x0001 Items, ...) -- CPU_ReadMem(4 bytes @ 0xE0001028) - Data: 00 00 00 00  returns 0x01 (0002ms, 0350ms total)
T182C 004:737 JLINK_ReadMemU32(0xE0001038, 0x0001 Items, ...) -- CPU_ReadMem(4 bytes @ 0xE0001038) - Data: 00 02 00 00  returns 0x01 (0001ms, 0351ms total)
T182C 004:738 JLINK_ReadMemU32(0xE0001048, 0x0001 Items, ...) -- CPU_ReadMem(4 bytes @ 0xE0001048) - Data: 00 00 00 00  returns 0x01 (0001ms, 0352ms total)
T182C 004:739 JLINK_ReadMemU32(0xE0001058, 0x0001 Items, ...) -- CPU_ReadMem(4 bytes @ 0xE0001058) - Data: 00 00 00 00  returns 0x01 (0001ms, 0353ms total)
T182C 004:740 JLINK_ReadReg(R0)  returns 0x08006BA1 (0000ms, 0353ms total)
T182C 004:740 JLINK_ReadReg(R1)  returns 0x200133E8 (0000ms, 0353ms total)
T182C 004:740 JLINK_ReadReg(R2)  returns 0x00000000 (0001ms, 0354ms total)
T182C 004:741 JLINK_ReadReg(R3)  returns 0x08005A6D (0000ms, 0354ms total)
T182C 004:741 JLINK_ReadReg(R4)  returns 0x0800A1F4 (0000ms, 0354ms total)
T182C 004:741 JLINK_ReadReg(R5)  returns 0x0800A1F4 (0000ms, 0354ms total)
T182C 004:741 JLINK_ReadReg(R6)  returns 0x00000000 (0000ms, 0354ms total)
T182C 004:741 JLINK_ReadReg(R7)  returns 0x00000000 (0000ms, 0354ms total)
T182C 004:741 JLINK_ReadReg(R8)  returns 0x00000000 (0000ms, 0354ms total)
T182C 004:741 JLINK_ReadReg(R9)  returns 0x00000000 (0000ms, 0354ms total)
T182C 004:741 JLINK_ReadReg(R10)  returns 0x00000000 (0001ms, 0355ms total)
T182C 004:742 JLINK_ReadReg(R11)  returns 0x00000000 (0000ms, 0355ms total)
T182C 004:742 JLINK_ReadReg(R12)  returns 0x00000000 (0000ms, 0355ms total)
T182C 004:742 JLINK_ReadReg(R13 (SP))  returns 0x200133E8 (0000ms, 0355ms total)
T182C 004:742 JLINK_ReadReg(R14)  returns 0x080003D1 (0000ms, 0355ms total)
T182C 004:742 JLINK_ReadReg(R15 (PC))  returns 0x08006BA0 (0000ms, 0355ms total)
T182C 004:742 JLINK_ReadReg(XPSR)  returns 0x61000000 (0000ms, 0355ms total)
T182C 004:742 JLINK_ReadReg(MSP)  returns 0x200133E8 (0000ms, 0355ms total)
T182C 004:743 JLINK_ReadReg(PSP)  returns 0x00000000 (0000ms, 0355ms total)
T182C 004:743 JLINK_ReadReg(CFBP)  returns 0x00000000 (0000ms, 0355ms total)
T182C 004:743 JLINK_ReadReg(FPSCR)  returns 0x00000000 (0006ms, 0361ms total)
T182C 004:749 JLINK_ReadReg(FPS0)  returns 0x00000000 (0000ms, 0361ms total)
T182C 004:749 JLINK_ReadReg(FPS1)  returns 0x00000000 (0001ms, 0362ms total)
T182C 004:750 JLINK_ReadReg(FPS2)  returns 0x00000000 (0000ms, 0362ms total)
T182C 004:750 JLINK_ReadReg(FPS3)  returns 0x00000000 (0000ms, 0362ms total)
T182C 004:750 JLINK_ReadReg(FPS4)  returns 0x00000000 (0000ms, 0362ms total)
T182C 004:750 JLINK_ReadReg(FPS5)  returns 0x00000000 (0000ms, 0362ms total)
T182C 004:750 JLINK_ReadReg(FPS6)  returns 0x00000000 (0000ms, 0362ms total)
T182C 004:750 JLINK_ReadReg(FPS7)  returns 0x00000000 (0000ms, 0362ms total)
T182C 004:750 JLINK_ReadReg(FPS8)  returns 0x00000000 (0001ms, 0363ms total)
T182C 004:751 JLINK_ReadReg(FPS9)  returns 0x00000000 (0000ms, 0363ms total)
T182C 004:751 JLINK_ReadReg(FPS10)  returns 0x00000000 (0000ms, 0363ms total)
T182C 004:751 JLINK_ReadReg(FPS11)  returns 0x00000000 (0000ms, 0363ms total)
T182C 004:751 JLINK_ReadReg(FPS12)  returns 0x00000000 (0000ms, 0363ms total)
T182C 004:751 JLINK_ReadReg(FPS13)  returns 0x00000000 (0000ms, 0363ms total)
T182C 004:751 JLINK_ReadReg(FPS14)  returns 0x00000000 (0000ms, 0363ms total)
T182C 004:751 JLINK_ReadReg(FPS15)  returns 0x00000000 (0000ms, 0363ms total)
T182C 004:751 JLINK_ReadReg(FPS16)  returns 0x00000000 (0001ms, 0364ms total)
T182C 004:752 JLINK_ReadReg(FPS17)  returns 0x00000000 (0000ms, 0364ms total)
T182C 004:752 JLINK_ReadReg(FPS18)  returns 0x00000000 (0000ms, 0364ms total)
T182C 004:752 JLINK_ReadReg(FPS19)  returns 0x00000000 (0000ms, 0364ms total)
T182C 004:752 JLINK_ReadReg(FPS20)  returns 0x00000000 (0000ms, 0364ms total)
T182C 004:752 JLINK_ReadReg(FPS21)  returns 0x00000000 (0000ms, 0364ms total)
T182C 004:752 JLINK_ReadReg(FPS22)  returns 0x00000000 (0000ms, 0364ms total)
T182C 004:752 JLINK_ReadReg(FPS23)  returns 0x00000000 (0000ms, 0364ms total)
T182C 004:752 JLINK_ReadReg(FPS24)  returns 0x00000000 (0000ms, 0364ms total)
T182C 004:752 JLINK_ReadReg(FPS25)  returns 0x00000000 (0000ms, 0364ms total)
T182C 004:752 JLINK_ReadReg(FPS26)  returns 0x00000000 (0000ms, 0364ms total)
T182C 004:753 JLINK_ReadReg(FPS27)  returns 0x00000000 (0000ms, 0365ms total)
T182C 004:753 JLINK_ReadReg(FPS28)  returns 0x00000000 (0000ms, 0365ms total)
T182C 004:753 JLINK_ReadReg(FPS29)  returns 0x00000000 (0000ms, 0365ms total)
T182C 004:753 JLINK_ReadReg(FPS30)  returns 0x00000000 (0000ms, 0365ms total)
T182C 004:753 JLINK_ReadReg(FPS31)  returns 0x00000000 (0000ms, 0365ms total)
T3F88 004:756 JLINK_ReadMemU32(0xE0001004, 0x0001 Items, ...) -- CPU_ReadMem(4 bytes @ 0xE0001004) - Data: EB DD 01 00  returns 0x01 (0001ms, 0366ms total)
T3F88 004:757 JLINK_ReadMem (0x20000F40, 0x0010 Bytes, ...) -- CPU_ReadMem(64 bytes @ 0x20000F40) -- Updating C cache (64 bytes @ 0x20000F40) -- Read from C cache (16 bytes @ 0x20000F40) - Data: 00 00 00 00 00 00 00 00 00 00 00 00 00 00 00 00  returns 0x00 (0002ms, 0368ms total)
T3F88 004:759 JLINK_ReadMem (0x2000000C, 0x0004 Bytes, ...) -- CPU_ReadMem(64 bytes @ 0x20000000) -- Updating C cache (64 bytes @ 0x20000000) -- Read from C cache (4 bytes @ 0x2000000C) - Data: 00 00 00 00  returns 0x00 (0002ms, 0370ms total)
T3F88 004:761 JLINK_ReadMem (0x20000010, 0x0004 Bytes, ...) -- Read from C cache (4 bytes @ 0x20000010) - Data: 00 00 00 00  returns 0x00 (0000ms, 0370ms total)
T3F88 004:761 JLINK_ReadMem (0x40026000, 0x00CC Bytes, ...) -- CPU_ReadMem(204 bytes @ 0x40026000) - Data: 00 00 00 00 00 00 00 00 00 00 00 00 00 00 00 00 ...  returns 0x00 (0003ms, 0373ms total)
T3F88 004:764 JLINK_ReadMem (0x400260CC, 0x0004 Bytes, ...) -- CPU_ReadMem(4 bytes @ 0x400260CC) - Data: 00 00 00 00  returns 0x00 (0001ms, 0374ms total)
T3F88 004:766 JLINK_ReadMem (0x40001800, 0x0010 Bytes, ...) -- CPU_ReadMem(16 bytes @ 0x40001800) - Data: 00 00 00 00 00 00 00 00 00 00 00 00 00 00 00 00  returns 0x00 (0002ms, 0376ms total)
T3F88 004:768 JLINK_ReadMem (0x40001810, 0x0004 Bytes, ...) -- CPU_ReadMem(4 bytes @ 0x40001810) - Data: 00 00 00 00  returns 0x00 (0001ms, 0377ms total)
T3F88 004:769 JLINK_ReadMem (0x40001818, 0x0004 Bytes, ...) -- CPU_ReadMem(4 bytes @ 0x40001818) - Data: 00 00 00 00  returns 0x00 (0001ms, 0378ms total)
T3F88 004:770 JLINK_ReadMem (0x40001820, 0x000C Bytes, ...) -- CPU_ReadMem(12 bytes @ 0x40001820) - Data: 00 00 00 00 00 00 00 00 00 00 00 00  returns 0x00 (0001ms, 0379ms total)
T3F88 004:771 JLINK_ReadMem (0x4000182C, 0x0004 Bytes, ...) -- CPU_ReadMem(4 bytes @ 0x4000182C) - Data: 00 00 00 00  returns 0x00 (0001ms, 0380ms total)
T3F88 004:772 JLINK_ReadMem (0x40001834, 0x0004 Bytes, ...) -- CPU_ReadMem(4 bytes @ 0x40001834) - Data: 00 00 00 00  returns 0x00 (0001ms, 0381ms total)
T3F88 004:773 JLINK_ReadMem (0x40001838, 0x0004 Bytes, ...) -- CPU_ReadMem(4 bytes @ 0x40001838) - Data: 00 00 00 00  returns 0x00 (0001ms, 0382ms total)
T3F88 004:774 JLINK_ReadMem (0x40006400, 0x001C Bytes, ...) -- CPU_ReadMem(28 bytes @ 0x40006400) - Data: 02 00 01 00 0A 0C 00 00 00 00 00 1C 00 00 00 00 ...  returns 0x00 (0002ms, 0384ms total)
T3F88 004:776 JLINK_ReadMem (0x4000641C, 0x0004 Bytes, ...) -- CPU_ReadMem(4 bytes @ 0x4000641C) - Data: 00 00 23 01  returns 0x00 (0001ms, 0385ms total)
T3F88 004:777 JLINK_ReadMem (0x40006580, 0x004C Bytes, ...) -- CPU_ReadMem(76 bytes @ 0x40006580) - Data: 3A B8 7F E3 3B B8 7F E3 3B B8 7F E3 3B B8 7F E3 ...  returns 0x00 (0001ms, 0386ms total)
T3F88 004:778 JLINK_ReadMem (0x400065CC, 0x0004 Bytes, ...) -- CPU_ReadMem(4 bytes @ 0x400065CC) - Data: 3B B8 7F E3  returns 0x00 (0001ms, 0387ms total)
T3F88 004:779 JLINK_ReadMem (0x40006600, 0x0004 Bytes, ...) -- CPU_ReadMem(4 bytes @ 0x40006600) - Data: 01 0E 1C 2A  returns 0x00 (0001ms, 0388ms total)
T3F88 004:781 JLINK_ReadMem (0x40006604, 0x0004 Bytes, ...) -- CPU_ReadMem(4 bytes @ 0x40006604) - Data: 00 00 00 00  returns 0x00 (0001ms, 0389ms total)
T3F88 004:782 JLINK_ReadMem (0x4000660C, 0x0004 Bytes, ...) -- CPU_ReadMem(4 bytes @ 0x4000660C) - Data: 00 00 00 00  returns 0x00 (0001ms, 0390ms total)
T3F88 004:783 JLINK_ReadMem (0x40006614, 0x0004 Bytes, ...) -- CPU_ReadMem(4 bytes @ 0x40006614) - Data: 00 00 00 00  returns 0x00 (0001ms, 0391ms total)
T3F88 004:784 JLINK_ReadMem (0x4000661C, 0x0004 Bytes, ...) -- CPU_ReadMem(4 bytes @ 0x4000661C) - Data: 00 00 00 00  returns 0x00 (0001ms, 0392ms total)
T3F88 004:785 JLINK_ReadMem (0x40006640, 0x00DC Bytes, ...) -- CPU_ReadMem(220 bytes @ 0x40006640) - Data: 3B B8 7F E3 3B B8 7F E3 3B B8 7F E3 3B B8 7F E3 ...  returns 0x00 (0002ms, 0394ms total)
T3F88 004:787 JLINK_ReadMem (0x4000671C, 0x0004 Bytes, ...) -- CPU_ReadMem(4 bytes @ 0x4000671C) - Data: 3B B8 7F E3  returns 0x00 (0001ms, 0395ms total)
T3F88 004:792 JLINK_ReadMem (0x40004400, 0x0018 Bytes, ...) -- CPU_ReadMem(24 bytes @ 0x40004400) - Data: 00 00 00 00 00 00 00 00 00 00 00 00 00 00 00 00 ...  returns 0x00 (0001ms, 0396ms total)
T3F88 004:794 JLINK_ReadMem (0x40004418, 0x0004 Bytes, ...) -- CPU_ReadMem(4 bytes @ 0x40004418) - Data: 00 00 00 00  returns 0x00 (0001ms, 0398ms total)
T3F88 004:799 JLINK_ReadMem (0x08006AA0, 0x003C Bytes, ...) -- CPU_ReadMem(128 bytes @ 0x08006A80) -- Updating C cache (128 bytes @ 0x08006A80) -- Read from C cache (60 bytes @ 0x08006AA0) - Data: 02 F0 B2 FA A0 61 38 B3 3A 4B 00 22 A0 33 11 46 ...  returns 0x00 (0002ms, 0400ms total)
T3F88 004:801 JLINK_ReadMem (0x08006ADC, 0x003C Bytes, ...) -- CPU_ReadMem(64 bytes @ 0x08006B00) -- Updating C cache (64 bytes @ 0x08006B00) -- Read from C cache (60 bytes @ 0x08006ADC) - Data: 95 FA 60 62 20 6A 58 B3 00 23 1A 46 19 46 60 69 ...  returns 0x00 (0002ms, 0402ms total)
T3F88 004:803 JLINK_ReadMem (0x08006B18, 0x003C Bytes, ...) -- CPU_ReadMem(64 bytes @ 0x08006B40) -- Updating C cache (64 bytes @ 0x08006B40) -- Read from C cache (60 bytes @ 0x08006B18) - Data: FE E7 FF E7 50 20 80 F3 11 88 BF F3 4F 8F BF F3 ...  returns 0x00 (0001ms, 0403ms total)
T3F88 004:805 JLINK_ReadMem (0x08006B54, 0x003C Bytes, ...) -- CPU_ReadMem(64 bytes @ 0x08006B80) -- Updating C cache (64 bytes @ 0x08006B80) -- Read from C cache (60 bytes @ 0x08006B54) - Data: 02 F0 D0 FA 01 28 17 D1 00 23 1A 46 19 46 E0 69 ...  returns 0x00 (0001ms, 0404ms total)
T3F88 004:806 JLINK_ReadMem (0x08006B90, 0x003C Bytes, ...) -- CPU_ReadMem(64 bytes @ 0x08006BC0) -- Updating C cache (64 bytes @ 0x08006BC0) -- Read from C cache (60 bytes @ 0x08006B90) - Data: 00 20 38 BD C8 04 00 20 04 00 00 20 08 06 00 20 ...  returns 0x00 (0002ms, 0406ms total)
T182C 007:124 JLINK_Go() -- CPU_ReadMem(4 bytes @ 0xE0001000) -- CPU_WriteMem(4 bytes @ 0xE0002008) (0004ms, 0410ms total)
T182C 007:229 JLINK_IsHalted()  returns FALSE (0001ms, 0411ms total)
T182C 007:331 JLINK_IsHalted()  returns FALSE (0001ms, 0411ms total)
T182C 007:433 JLINK_IsHalted()  returns FALSE (0001ms, 0411ms total)
T182C 007:535 JLINK_IsHalted()  returns FALSE (0001ms, 0411ms total)
T182C 007:637 JLINK_IsHalted()  returns FALSE (0001ms, 0411ms total)
T182C 007:738 JLINK_ReadMemU32(0xE0001004, 0x0001 Items, ...) -- CPU is running -- CPU_ReadMem(4 bytes @ 0xE0001004) - Data: 12 1D 1B 06  returns 0x01 (0001ms, 0411ms total)
T3F88 007:739 JLINK_ReadMem (0x20000F40, 0x0010 Bytes, ...) -- CPU is running -- CPU_ReadMem(16 bytes @ 0x20000F40) - Data: 01 03 04 00 07 00 00 4B F2 00 00 00 00 00 00 00  returns 0x00 (0001ms, 0412ms total)
T3F88 007:740 JLINK_ReadMem (0x2000000C, 0x0004 Bytes, ...) -- CPU is running -- CPU_ReadMem(4 bytes @ 0x2000000C) - Data: D0 F5 00 20  returns 0x00 (0001ms, 0413ms total)
T3F88 007:742 JLINK_ReadMem (0x20000010, 0x0004 Bytes, ...) -- CPU is running -- CPU_ReadMem(4 bytes @ 0x20000010) - Data: D0 F5 00 20  returns 0x00 (0001ms, 0415ms total)
T3F88 007:743 JLINK_ReadMem (0x40026000, 0x00CC Bytes, ...) -- CPU is running -- CPU_ReadMem(204 bytes @ 0x40026000) - Data: 00 00 00 00 00 00 00 00 00 00 00 00 00 00 00 00 ...  returns 0x00 (0003ms, 0418ms total)
T3F88 007:746 JLINK_ReadMem (0x400260CC, 0x0004 Bytes, ...) -- CPU is running -- CPU_ReadMem(4 bytes @ 0x400260CC) - Data: 21 00 00 00  returns 0x00 (0001ms, 0419ms total)
T3F88 007:749 JLINK_ReadMem (0x40001800, 0x0010 Bytes, ...) -- CPU is running -- CPU_ReadMem(16 bytes @ 0x40001800) - Data: 00 00 00 00 00 00 00 00 00 00 00 00 01 00 00 00  returns 0x00 (0002ms, 0421ms total)
T3F88 007:751 JLINK_ReadMem (0x40001810, 0x0004 Bytes, ...) -- CPU is running -- CPU_ReadMem(4 bytes @ 0x40001810) - Data: 06 00 00 00  returns 0x00 (0001ms, 0422ms total)
T3F88 007:752 JLINK_ReadMem (0x40001818, 0x0004 Bytes, ...) -- CPU is running -- CPU_ReadMem(4 bytes @ 0x40001818) - Data: 00 00 00 00  returns 0x00 (0001ms, 0423ms total)
T3F88 007:753 JLINK_ReadMem (0x40001820, 0x000C Bytes, ...) -- CPU is running -- CPU_ReadMem(12 bytes @ 0x40001820) - Data: 00 00 00 00 00 00 00 00 CF 20 00 00  returns 0x00 (0001ms, 0424ms total)
T3F88 007:754 JLINK_ReadMem (0x4000182C, 0x0004 Bytes, ...) -- CPU is running -- CPU_ReadMem(4 bytes @ 0x4000182C) - Data: DB 00 00 00  returns 0x00 (0002ms, 0426ms total)
T3F88 007:756 JLINK_ReadMem (0x40001834, 0x0004 Bytes, ...) -- CPU is running -- CPU_ReadMem(4 bytes @ 0x40001834) - Data: 00 00 00 00  returns 0x00 (0001ms, 0427ms total)
T3F88 007:757 JLINK_ReadMem (0x40001838, 0x0004 Bytes, ...) -- CPU is running -- CPU_ReadMem(4 bytes @ 0x40001838) - Data: 00 00 00 00  returns 0x00 (0001ms, 0428ms total)
T3F88 007:758 JLINK_ReadMem (0x40006400, 0x001C Bytes, ...) -- CPU is running -- CPU_ReadMem(28 bytes @ 0x40006400) - Data: 10 00 01 00 08 0C 00 00 00 00 00 1C 00 00 00 00 ...  returns 0x00 (0002ms, 0430ms total)
T3F88 007:760 JLINK_ReadMem (0x4000641C, 0x0004 Bytes, ...) -- CPU is running -- CPU_ReadMem(4 bytes @ 0x4000641C) - Data: 0B 00 22 00  returns 0x00 (0001ms, 0431ms total)
T3F88 007:761 JLINK_ReadMem (0x40006580, 0x004C Bytes, ...) -- CPU is running -- CPU_ReadMem(76 bytes @ 0x40006580) - Data: 0C 80 00 23 05 00 00 00 01 00 19 00 00 A5 A5 A5 ...  returns 0x00 (0001ms, 0432ms total)
T3F88 007:762 JLINK_ReadMem (0x400065CC, 0x0004 Bytes, ...) -- CPU is running -- CPU_ReadMem(4 bytes @ 0x400065CC) - Data: 2D 14 51 66  returns 0x00 (0001ms, 0433ms total)
T3F88 007:763 JLINK_ReadMem (0x40006600, 0x0004 Bytes, ...) -- CPU is running -- CPU_ReadMem(4 bytes @ 0x40006600) - Data: 00 0E 1C 2A  returns 0x00 (0001ms, 0434ms total)
T3F88 007:764 JLINK_ReadMem (0x40006604, 0x0004 Bytes, ...) -- CPU is running -- CPU_ReadMem(4 bytes @ 0x40006604) - Data: 00 00 00 00  returns 0x00 (0001ms, 0435ms total)
T3F88 007:765 JLINK_ReadMem (0x4000660C, 0x0004 Bytes, ...) -- CPU is running -- CPU_ReadMem(4 bytes @ 0x4000660C) - Data: 01 00 00 00  returns 0x00 (0001ms, 0436ms total)
T3F88 007:766 JLINK_ReadMem (0x40006614, 0x0004 Bytes, ...) -- CPU is running -- CPU_ReadMem(4 bytes @ 0x40006614) - Data: 00 00 00 00  returns 0x00 (0001ms, 0437ms total)
T3F88 007:767 JLINK_ReadMem (0x4000661C, 0x0004 Bytes, ...) -- CPU is running -- CPU_ReadMem(4 bytes @ 0x4000661C) - Data: 01 00 00 00  returns 0x00 (0001ms, 0438ms total)
T3F88 007:768 JLINK_ReadMem (0x40006640, 0x00DC Bytes, ...) -- CPU is running -- CPU_ReadMem(220 bytes @ 0x40006640) - Data: 04 00 18 00 00 00 00 00 D0 B2 E1 24 CE 46 56 94 ...  returns 0x00 (0003ms, 0441ms total)
T3F88 007:771 JLINK_ReadMem (0x4000671C, 0x0004 Bytes, ...) -- CPU is running -- CPU_ReadMem(4 bytes @ 0x4000671C) - Data: 3B B8 7F E3  returns 0x00 (0001ms, 0442ms total)
T3F88 007:794 JLINK_ReadMem (0x40004400, 0x0018 Bytes, ...) -- CPU is running -- CPU_ReadMem(24 bytes @ 0x40004400) - Data: C0 01 00 00 F2 01 00 00 8B 08 00 00 1C 34 00 00 ...  returns 0x00 (0001ms, 0443ms total)
T3F88 007:795 JLINK_ReadMem (0x40004418, 0x0004 Bytes, ...) -- CPU is running -- CPU_ReadMem(4 bytes @ 0x40004418) - Data: 00 00 00 00  returns 0x00 (0001ms, 0444ms total)
T182C 007:820 JLINK_IsHalted()  returns FALSE (0001ms, 0445ms total)
T182C 007:922 JLINK_IsHalted()  returns FALSE (0001ms, 0445ms total)
T182C 008:025 JLINK_IsHalted()  returns FALSE (0001ms, 0445ms total)
T182C 008:126 JLINK_IsHalted()  returns FALSE (0001ms, 0445ms total)
T182C 008:228 JLINK_IsHalted()  returns FALSE (0001ms, 0445ms total)
T182C 008:329 JLINK_ReadMemU32(0xE0001004, 0x0001 Items, ...) -- CPU is running - Data: 12 1D 1B 06  returns 0x01 (0000ms, 0444ms total)
T3F88 008:329 JLINK_ReadMem (0x20000F40, 0x0010 Bytes, ...) -- CPU is running -- CPU_ReadMem(16 bytes @ 0x20000F40) - Data: 01 03 04 00 07 00 00 4B F2 00 00 00 00 00 00 00  returns 0x00 (0001ms, 0445ms total)
T3F88 008:330 JLINK_ReadMem (0x2000000C, 0x0004 Bytes, ...) -- CPU is running -- CPU_ReadMem(4 bytes @ 0x2000000C) - Data: C0 F6 00 20  returns 0x00 (0001ms, 0446ms total)
T3F88 008:331 JLINK_ReadMem (0x20000010, 0x0004 Bytes, ...) -- CPU is running -- CPU_ReadMem(4 bytes @ 0x20000010) - Data: C0 F6 00 20  returns 0x00 (0001ms, 0447ms total)
T3F88 008:333 JLINK_ReadMem (0x40026000, 0x00CC Bytes, ...) -- CPU is running -- CPU_ReadMem(204 bytes @ 0x40026000) - Data: 00 00 00 00 00 00 00 00 00 00 00 00 00 00 00 00 ...  returns 0x00 (0002ms, 0449ms total)
T3F88 008:335 JLINK_ReadMem (0x400260CC, 0x0004 Bytes, ...) -- CPU is running -- CPU_ReadMem(4 bytes @ 0x400260CC) - Data: 21 00 00 00  returns 0x00 (0001ms, 0450ms total)
T3F88 008:337 JLINK_ReadMem (0x40001800, 0x0010 Bytes, ...) -- CPU is running -- CPU_ReadMem(16 bytes @ 0x40001800) - Data: 00 00 00 00 00 00 00 00 00 00 00 00 01 00 00 00  returns 0x00 (0001ms, 0451ms total)
T3F88 008:338 JLINK_ReadMem (0x40001810, 0x0004 Bytes, ...) -- CPU is running -- CPU_ReadMem(4 bytes @ 0x40001810) - Data: 06 00 00 00  returns 0x00 (0001ms, 0452ms total)
T3F88 008:339 JLINK_ReadMem (0x40001818, 0x0004 Bytes, ...) -- CPU is running -- CPU_ReadMem(4 bytes @ 0x40001818) - Data: 00 00 00 00  returns 0x00 (0002ms, 0454ms total)
T3F88 008:341 JLINK_ReadMem (0x40001820, 0x000C Bytes, ...) -- CPU is running -- CPU_ReadMem(12 bytes @ 0x40001820) - Data: 00 00 00 00 00 00 00 00 CF 20 00 00  returns 0x00 (0001ms, 0455ms total)
T3F88 008:342 JLINK_ReadMem (0x4000182C, 0x0004 Bytes, ...) -- CPU is running -- CPU_ReadMem(4 bytes @ 0x4000182C) - Data: DB 00 00 00  returns 0x00 (0001ms, 0456ms total)
T3F88 008:343 JLINK_ReadMem (0x40001834, 0x0004 Bytes, ...) -- CPU is running -- CPU_ReadMem(4 bytes @ 0x40001834) - Data: 00 00 00 00  returns 0x00 (0001ms, 0457ms total)
T3F88 008:344 JLINK_ReadMem (0x40001838, 0x0004 Bytes, ...) -- CPU is running -- CPU_ReadMem(4 bytes @ 0x40001838) - Data: 00 00 00 00  returns 0x00 (0001ms, 0458ms total)
T3F88 008:345 JLINK_ReadMem (0x40006400, 0x001C Bytes, ...) -- CPU is running -- CPU_ReadMem(28 bytes @ 0x40006400) - Data: 10 00 01 00 08 0C 00 00 00 00 00 1C 00 00 00 00 ...  returns 0x00 (0001ms, 0459ms total)
T3F88 008:346 JLINK_ReadMem (0x4000641C, 0x0004 Bytes, ...) -- CPU is running -- CPU_ReadMem(4 bytes @ 0x4000641C) - Data: 0B 00 22 00  returns 0x00 (0002ms, 0461ms total)
T3F88 008:348 JLINK_ReadMem (0x40006580, 0x004C Bytes, ...) -- CPU is running -- CPU_ReadMem(76 bytes @ 0x40006580) - Data: 0C 80 00 23 05 00 00 00 01 00 19 00 00 A5 A5 A5 ...  returns 0x00 (0001ms, 0462ms total)
T3F88 008:349 JLINK_ReadMem (0x400065CC, 0x0004 Bytes, ...) -- CPU is running -- CPU_ReadMem(4 bytes @ 0x400065CC) - Data: 2D 14 51 66  returns 0x00 (0001ms, 0463ms total)
T3F88 008:350 JLINK_ReadMem (0x40006600, 0x0004 Bytes, ...) -- CPU is running -- CPU_ReadMem(4 bytes @ 0x40006600) - Data: 00 0E 1C 2A  returns 0x00 (0001ms, 0464ms total)
T3F88 008:352 JLINK_ReadMem (0x40006604, 0x0004 Bytes, ...) -- CPU is running -- CPU_ReadMem(4 bytes @ 0x40006604) - Data: 00 00 00 00  returns 0x00 (0002ms, 0467ms total)
T3F88 008:354 JLINK_ReadMem (0x4000660C, 0x0004 Bytes, ...) -- CPU is running -- CPU_ReadMem(4 bytes @ 0x4000660C) - Data: 01 00 00 00  returns 0x00 (0001ms, 0468ms total)
T3F88 008:355 JLINK_ReadMem (0x40006614, 0x0004 Bytes, ...) -- CPU is running -- CPU_ReadMem(4 bytes @ 0x40006614) - Data: 00 00 00 00  returns 0x00 (0001ms, 0469ms total)
T3F88 008:356 JLINK_ReadMem (0x4000661C, 0x0004 Bytes, ...) -- CPU is running -- CPU_ReadMem(4 bytes @ 0x4000661C) - Data: 01 00 00 00  returns 0x00 (0001ms, 0470ms total)
T3F88 008:357 JLINK_ReadMem (0x40006640, 0x00DC Bytes, ...) -- CPU is running -- CPU_ReadMem(220 bytes @ 0x40006640) - Data: 04 00 18 00 00 00 00 00 D0 B2 E1 24 CE 46 56 94 ...  returns 0x00 (0003ms, 0473ms total)
T3F88 008:360 JLINK_ReadMem (0x4000671C, 0x0004 Bytes, ...) -- CPU is running -- CPU_ReadMem(4 bytes @ 0x4000671C) - Data: 3B B8 7F E3  returns 0x00 (0001ms, 0474ms total)
T3F88 008:364 JLINK_ReadMem (0x40004400, 0x0018 Bytes, ...) -- CPU is running -- CPU_ReadMem(24 bytes @ 0x40004400) - Data: C0 01 00 00 F2 01 00 00 8B 08 00 00 1C 34 00 00 ...  returns 0x00 (0001ms, 0475ms total)
T3F88 008:365 JLINK_ReadMem (0x40004418, 0x0004 Bytes, ...) -- CPU is running -- CPU_ReadMem(4 bytes @ 0x40004418) - Data: 00 00 00 00  returns 0x00 (0002ms, 0477ms total)
T182C 008:367 JLINK_IsHalted()  returns FALSE (0001ms, 0478ms total)
T182C 008:470 JLINK_IsHalted()  returns FALSE (0001ms, 0478ms total)
T182C 008:572 JLINK_IsHalted()  returns FALSE (0001ms, 0478ms total)
T182C 008:674 JLINK_IsHalted()  returns FALSE (0001ms, 0478ms total)
T182C 008:776 JLINK_IsHalted()  returns FALSE (0001ms, 0478ms total)
T182C 008:878 JLINK_ReadMemU32(0xE0001004, 0x0001 Items, ...) -- CPU is running - Data: 12 1D 1B 06  returns 0x01 (0000ms, 0477ms total)
T3F88 008:880 JLINK_ReadMem (0x20000F40, 0x0010 Bytes, ...) -- CPU is running -- CPU_ReadMem(16 bytes @ 0x20000F40) - Data: 01 03 04 00 07 00 00 4B F2 00 00 00 00 00 00 00  returns 0x00 (0001ms, 0478ms total)
T3F88 008:881 JLINK_ReadMem (0x2000000C, 0x0004 Bytes, ...) -- CPU is running -- CPU_ReadMem(4 bytes @ 0x2000000C) - Data: C0 F6 00 20  returns 0x00 (0001ms, 0479ms total)
T3F88 008:882 JLINK_ReadMem (0x20000010, 0x0004 Bytes, ...) -- CPU is running -- CPU_ReadMem(4 bytes @ 0x20000010) - Data: B0 F7 00 20  returns 0x00 (0001ms, 0480ms total)
T3F88 008:884 JLINK_ReadMem (0x40026000, 0x00CC Bytes, ...) -- CPU is running -- CPU_ReadMem(204 bytes @ 0x40026000) - Data: 00 00 00 00 00 00 00 00 00 00 00 00 00 00 00 00 ...  returns 0x00 (0002ms, 0482ms total)
T3F88 008:886 JLINK_ReadMem (0x400260CC, 0x0004 Bytes, ...) -- CPU is running -- CPU_ReadMem(4 bytes @ 0x400260CC) - Data: 21 00 00 00  returns 0x00 (0001ms, 0483ms total)
T3F88 008:888 JLINK_ReadMem (0x40001800, 0x0010 Bytes, ...) -- CPU is running -- CPU_ReadMem(16 bytes @ 0x40001800) - Data: 01 00 00 00 00 00 00 00 00 00 00 00 01 00 00 00  returns 0x00 (0002ms, 0485ms total)
T3F88 008:890 JLINK_ReadMem (0x40001810, 0x0004 Bytes, ...) -- CPU is running -- CPU_ReadMem(4 bytes @ 0x40001810) - Data: 06 00 00 00  returns 0x00 (0001ms, 0486ms total)
T3F88 008:891 JLINK_ReadMem (0x40001818, 0x0004 Bytes, ...) -- CPU is running -- CPU_ReadMem(4 bytes @ 0x40001818) - Data: 00 00 00 00  returns 0x00 (0001ms, 0487ms total)
T3F88 008:892 JLINK_ReadMem (0x40001820, 0x000C Bytes, ...) -- CPU is running -- CPU_ReadMem(12 bytes @ 0x40001820) - Data: 00 00 00 00 00 00 00 00 CF 20 00 00  returns 0x00 (0001ms, 0488ms total)
T3F88 008:893 JLINK_ReadMem (0x4000182C, 0x0004 Bytes, ...) -- CPU is running -- CPU_ReadMem(4 bytes @ 0x4000182C) - Data: DB 00 00 00  returns 0x00 (0001ms, 0489ms total)
T3F88 008:894 JLINK_ReadMem (0x40001834, 0x0004 Bytes, ...) -- CPU is running -- CPU_ReadMem(4 bytes @ 0x40001834) - Data: 00 00 00 00  returns 0x00 (0001ms, 0490ms total)
T3F88 008:895 JLINK_ReadMem (0x40001838, 0x0004 Bytes, ...) -- CPU is running -- CPU_ReadMem(4 bytes @ 0x40001838) - Data: 00 00 00 00  returns 0x00 (0001ms, 0491ms total)
T3F88 008:897 JLINK_ReadMem (0x40006400, 0x001C Bytes, ...) -- CPU is running -- CPU_ReadMem(28 bytes @ 0x40006400) - Data: 10 00 01 00 08 0C 00 00 00 00 00 1C 00 00 00 00 ...  returns 0x00 (0001ms, 0492ms total)
T3F88 008:898 JLINK_ReadMem (0x4000641C, 0x0004 Bytes, ...) -- CPU is running -- CPU_ReadMem(4 bytes @ 0x4000641C) - Data: 0B 00 22 00  returns 0x00 (0001ms, 0493ms total)
T3F88 008:899 JLINK_ReadMem (0x40006580, 0x004C Bytes, ...) -- CPU is running -- CPU_ReadMem(76 bytes @ 0x40006580) - Data: 0C 80 00 23 05 00 00 00 01 00 19 00 00 A5 A5 A5 ...  returns 0x00 (0002ms, 0495ms total)
T3F88 008:901 JLINK_ReadMem (0x400065CC, 0x0004 Bytes, ...) -- CPU is running -- CPU_ReadMem(4 bytes @ 0x400065CC) - Data: 2D 14 51 66  returns 0x00 (0001ms, 0496ms total)
T3F88 008:902 JLINK_ReadMem (0x40006600, 0x0004 Bytes, ...) -- CPU is running -- CPU_ReadMem(4 bytes @ 0x40006600) - Data: 00 0E 1C 2A  returns 0x00 (0001ms, 0497ms total)
T3F88 008:903 JLINK_ReadMem (0x40006604, 0x0004 Bytes, ...) -- CPU is running -- CPU_ReadMem(4 bytes @ 0x40006604) - Data: 00 00 00 00  returns 0x00 (0001ms, 0498ms total)
T3F88 008:904 JLINK_ReadMem (0x4000660C, 0x0004 Bytes, ...) -- CPU is running -- CPU_ReadMem(4 bytes @ 0x4000660C) - Data: 01 00 00 00  returns 0x00 (0001ms, 0499ms total)
T3F88 008:905 JLINK_ReadMem (0x40006614, 0x0004 Bytes, ...) -- CPU is running -- CPU_ReadMem(4 bytes @ 0x40006614) - Data: 00 00 00 00  returns 0x00 (0002ms, 0501ms total)
T3F88 008:907 JLINK_ReadMem (0x4000661C, 0x0004 Bytes, ...) -- CPU is running -- CPU_ReadMem(4 bytes @ 0x4000661C) - Data: 01 00 00 00  returns 0x00 (0001ms, 0502ms total)
T3F88 008:908 JLINK_ReadMem (0x40006640, 0x00DC Bytes, ...) -- CPU is running -- CPU_ReadMem(220 bytes @ 0x40006640) - Data: 04 00 18 00 00 00 00 00 D0 B2 E1 24 CE 46 56 94 ...  returns 0x00 (0002ms, 0504ms total)
T3F88 008:910 JLINK_ReadMem (0x4000671C, 0x0004 Bytes, ...) -- CPU is running -- CPU_ReadMem(4 bytes @ 0x4000671C) - Data: 3B B8 7F E3  returns 0x00 (0001ms, 0505ms total)
T3F88 008:914 JLINK_ReadMem (0x40004400, 0x0018 Bytes, ...) -- CPU is running -- CPU_ReadMem(24 bytes @ 0x40004400) - Data: C0 01 00 00 1D 00 00 00 8B 08 00 00 1C 35 00 00 ...  returns 0x00 (0002ms, 0507ms total)
T3F88 008:916 JLINK_ReadMem (0x40004418, 0x0004 Bytes, ...) -- CPU is running -- CPU_ReadMem(4 bytes @ 0x40004418) - Data: 00 00 00 00  returns 0x00 (0001ms, 0508ms total)
T182C 008:931 JLINK_IsHalted()  returns FALSE (0001ms, 0509ms total)
T182C 009:033 JLINK_IsHalted()  returns FALSE (0001ms, 0509ms total)
T182C 009:135 JLINK_IsHalted()  returns FALSE (0001ms, 0509ms total)
T182C 009:237 JLINK_IsHalted()  returns FALSE (0001ms, 0509ms total)
T182C 009:338 JLINK_IsHalted()  returns FALSE (0001ms, 0509ms total)
T182C 009:440 JLINK_ReadMemU32(0xE0001004, 0x0001 Items, ...) -- CPU is running - Data: 12 1D 1B 06  returns 0x01 (0000ms, 0508ms total)
T3F88 009:440 JLINK_ReadMem (0x20000F40, 0x0010 Bytes, ...) -- CPU is running -- CPU_ReadMem(16 bytes @ 0x20000F40) - Data: 01 03 04 00 00 00 00 FA 33 00 00 00 00 00 00 00  returns 0x00 (0001ms, 0509ms total)
T3F88 009:441 JLINK_ReadMem (0x2000000C, 0x0004 Bytes, ...) -- CPU is running -- CPU_ReadMem(4 bytes @ 0x2000000C) - Data: 90 F9 00 20  returns 0x00 (0002ms, 0511ms total)
T3F88 009:443 JLINK_ReadMem (0x20000010, 0x0004 Bytes, ...) -- CPU is running -- CPU_ReadMem(4 bytes @ 0x20000010) - Data: 90 F9 00 20  returns 0x00 (0001ms, 0512ms total)
T3F88 009:445 JLINK_ReadMem (0x40026000, 0x00CC Bytes, ...) -- CPU is running -- CPU_ReadMem(204 bytes @ 0x40026000) - Data: 00 00 00 00 00 00 00 00 00 00 00 00 00 00 00 00 ...  returns 0x00 (0002ms, 0514ms total)
T3F88 009:448 JLINK_ReadMem (0x400260CC, 0x0004 Bytes, ...) -- CPU is running -- CPU_ReadMem(4 bytes @ 0x400260CC) - Data: 21 00 00 00  returns 0x00 (0001ms, 0516ms total)
T3F88 009:450 JLINK_ReadMem (0x40001800, 0x0010 Bytes, ...) -- CPU is running -- CPU_ReadMem(16 bytes @ 0x40001800) - Data: 00 00 00 00 00 00 00 00 00 00 00 00 01 00 00 00  returns 0x00 (0001ms, 0517ms total)
T3F88 009:451 JLINK_ReadMem (0x40001810, 0x0004 Bytes, ...) -- CPU is running -- CPU_ReadMem(4 bytes @ 0x40001810) - Data: 06 00 00 00  returns 0x00 (0001ms, 0518ms total)
T3F88 009:452 JLINK_ReadMem (0x40001818, 0x0004 Bytes, ...) -- CPU is running -- CPU_ReadMem(4 bytes @ 0x40001818) - Data: 00 00 00 00  returns 0x00 (0001ms, 0519ms total)
T3F88 009:453 JLINK_ReadMem (0x40001820, 0x000C Bytes, ...) -- CPU is running -- CPU_ReadMem(12 bytes @ 0x40001820) - Data: 00 00 00 00 00 00 00 00 CF 20 00 00  returns 0x00 (0001ms, 0520ms total)
T3F88 009:454 JLINK_ReadMem (0x4000182C, 0x0004 Bytes, ...) -- CPU is running -- CPU_ReadMem(4 bytes @ 0x4000182C) - Data: DB 00 00 00  returns 0x00 (0001ms, 0521ms total)
T3F88 009:455 JLINK_ReadMem (0x40001834, 0x0004 Bytes, ...) -- CPU is running -- CPU_ReadMem(4 bytes @ 0x40001834) - Data: 00 00 00 00  returns 0x00 (0001ms, 0522ms total)
T3F88 009:456 JLINK_ReadMem (0x40001838, 0x0004 Bytes, ...) -- CPU is running -- CPU_ReadMem(4 bytes @ 0x40001838) - Data: 00 00 00 00  returns 0x00 (0002ms, 0524ms total)
T3F88 009:458 JLINK_ReadMem (0x40006400, 0x001C Bytes, ...) -- CPU is running -- CPU_ReadMem(28 bytes @ 0x40006400) - Data: 10 00 01 00 08 0C 00 00 00 00 00 1C 00 00 00 00 ...  returns 0x00 (0001ms, 0525ms total)
T3F88 009:459 JLINK_ReadMem (0x4000641C, 0x0004 Bytes, ...) -- CPU is running -- CPU_ReadMem(4 bytes @ 0x4000641C) - Data: 0B 00 22 00  returns 0x00 (0001ms, 0526ms total)
T3F88 009:460 JLINK_ReadMem (0x40006580, 0x004C Bytes, ...) -- CPU is running -- CPU_ReadMem(76 bytes @ 0x40006580) - Data: 0C 80 00 23 05 00 00 00 01 00 19 00 00 A5 A5 A5 ...  returns 0x00 (0002ms, 0528ms total)
T3F88 009:462 JLINK_ReadMem (0x400065CC, 0x0004 Bytes, ...) -- CPU is running -- CPU_ReadMem(4 bytes @ 0x400065CC) - Data: 2D 14 51 66  returns 0x00 (0001ms, 0529ms total)
T3F88 009:463 JLINK_ReadMem (0x40006600, 0x0004 Bytes, ...) -- CPU is running -- CPU_ReadMem(4 bytes @ 0x40006600) - Data: 00 0E 1C 2A  returns 0x00 (0001ms, 0530ms total)
T3F88 009:464 JLINK_ReadMem (0x40006604, 0x0004 Bytes, ...) -- CPU is running -- CPU_ReadMem(4 bytes @ 0x40006604) - Data: 00 00 00 00  returns 0x00 (0001ms, 0531ms total)
T3F88 009:465 JLINK_ReadMem (0x4000660C, 0x0004 Bytes, ...) -- CPU is running -- CPU_ReadMem(4 bytes @ 0x4000660C) - Data: 01 00 00 00  returns 0x00 (0001ms, 0532ms total)
T3F88 009:466 JLINK_ReadMem (0x40006614, 0x0004 Bytes, ...) -- CPU is running -- CPU_ReadMem(4 bytes @ 0x40006614) - Data: 00 00 00 00  returns 0x00 (0001ms, 0533ms total)
T3F88 009:467 JLINK_ReadMem (0x4000661C, 0x0004 Bytes, ...) -- CPU is running -- CPU_ReadMem(4 bytes @ 0x4000661C) - Data: 01 00 00 00  returns 0x00 (0001ms, 0534ms total)
T3F88 009:468 JLINK_ReadMem (0x40006640, 0x00DC Bytes, ...) -- CPU is running -- CPU_ReadMem(220 bytes @ 0x40006640) - Data: 04 00 18 00 00 00 00 00 D0 B2 E1 24 CE 46 56 94 ...  returns 0x00 (0003ms, 0537ms total)
T3F88 009:471 JLINK_ReadMem (0x4000671C, 0x0004 Bytes, ...) -- CPU is running -- CPU_ReadMem(4 bytes @ 0x4000671C) - Data: 3B B8 7F E3  returns 0x00 (0001ms, 0538ms total)
T3F88 009:475 JLINK_ReadMem (0x40004400, 0x0018 Bytes, ...) -- CPU is running -- CPU_ReadMem(24 bytes @ 0x40004400) - Data: C0 01 00 00 33 00 00 00 8B 08 00 00 1C 34 00 00 ...  returns 0x00 (0002ms, 0540ms total)
T3F88 009:477 JLINK_ReadMem (0x40004418, 0x0004 Bytes, ...) -- CPU is running -- CPU_ReadMem(4 bytes @ 0x40004418) - Data: 00 00 00 00  returns 0x00 (0001ms, 0541ms total)
T182C 009:489 JLINK_IsHalted()  returns FALSE (0001ms, 0542ms total)
T182C 009:591 JLINK_IsHalted()  returns FALSE (0001ms, 0542ms total)
T182C 009:693 JLINK_IsHalted()  returns FALSE (0001ms, 0542ms total)
T182C 009:795 JLINK_IsHalted()  returns FALSE (0001ms, 0542ms total)
T182C 009:897 JLINK_IsHalted()  returns FALSE (0001ms, 0542ms total)
T182C 009:998 JLINK_ReadMemU32(0xE0001004, 0x0001 Items, ...) -- CPU is running - Data: 12 1D 1B 06  returns 0x01 (0000ms, 0541ms total)
T3F88 009:998 JLINK_ReadMem (0x20000F40, 0x0010 Bytes, ...) -- CPU is running -- CPU_ReadMem(16 bytes @ 0x20000F40) - Data: 01 03 04 00 07 00 00 4B F2 00 00 00 00 00 00 00  returns 0x00 (0001ms, 0542ms total)
T3F88 009:999 JLINK_ReadMem (0x2000000C, 0x0004 Bytes, ...) -- CPU is running -- CPU_ReadMem(4 bytes @ 0x2000000C) - Data: 80 FA 00 20  returns 0x00 (0001ms, 0543ms total)
T3F88 010:001 JLINK_ReadMem (0x20000010, 0x0004 Bytes, ...) -- CPU is running -- CPU_ReadMem(4 bytes @ 0x20000010) - Data: 80 FA 00 20  returns 0x00 (0001ms, 0544ms total)
T3F88 010:002 JLINK_ReadMem (0x40026000, 0x00CC Bytes, ...) -- CPU is running -- CPU_ReadMem(204 bytes @ 0x40026000) - Data: 00 00 00 00 00 00 00 00 00 00 00 00 00 00 00 00 ...  returns 0x00 (0003ms, 0547ms total)
T3F88 010:005 JLINK_ReadMem (0x400260CC, 0x0004 Bytes, ...) -- CPU is running -- CPU_ReadMem(4 bytes @ 0x400260CC) - Data: 21 00 00 00  returns 0x00 (0001ms, 0548ms total)
T3F88 010:007 JLINK_ReadMem (0x40001800, 0x0010 Bytes, ...) -- CPU is running -- CPU_ReadMem(16 bytes @ 0x40001800) - Data: 00 00 00 00 00 00 00 00 00 00 00 00 01 00 00 00  returns 0x00 (0001ms, 0549ms total)
T3F88 010:008 JLINK_ReadMem (0x40001810, 0x0004 Bytes, ...) -- CPU is running -- CPU_ReadMem(4 bytes @ 0x40001810) - Data: 06 00 00 00  returns 0x00 (0001ms, 0550ms total)
T3F88 010:009 JLINK_ReadMem (0x40001818, 0x0004 Bytes, ...) -- CPU is running -- CPU_ReadMem(4 bytes @ 0x40001818) - Data: 00 00 00 00  returns 0x00 (0001ms, 0551ms total)
T3F88 010:010 JLINK_ReadMem (0x40001820, 0x000C Bytes, ...) -- CPU is running -- CPU_ReadMem(12 bytes @ 0x40001820) - Data: 00 00 00 00 00 00 00 00 CF 20 00 00  returns 0x00 (0001ms, 0552ms total)
T3F88 010:011 JLINK_ReadMem (0x4000182C, 0x0004 Bytes, ...) -- CPU is running -- CPU_ReadMem(4 bytes @ 0x4000182C) - Data: DB 00 00 00  returns 0x00 (0001ms, 0553ms total)
T3F88 010:012 JLINK_ReadMem (0x40001834, 0x0004 Bytes, ...) -- CPU is running -- CPU_ReadMem(4 bytes @ 0x40001834) - Data: 00 00 00 00  returns 0x00 (0001ms, 0554ms total)
T3F88 010:014 JLINK_ReadMem (0x40001838, 0x0004 Bytes, ...) -- CPU is running -- CPU_ReadMem(4 bytes @ 0x40001838) - Data: 00 00 00 00  returns 0x00 (0001ms, 0555ms total)
T3F88 010:015 JLINK_ReadMem (0x40006400, 0x001C Bytes, ...) -- CPU is running -- CPU_ReadMem(28 bytes @ 0x40006400) - Data: 10 00 01 00 08 0C 00 00 00 00 00 1C 00 00 00 00 ...  returns 0x00 (0001ms, 0556ms total)
